
T1FF4 18955:161 SEGGER J-Link V6.30d Log File (0031ms, 0059ms total)
T1FF4 18955:161 DLL Compiled: Feb 16 2018 13:30:32 (0031ms, 0059ms total)
T1FF4 18955:161 Logging started @ 2020-11-17 14:15 (0031ms, 0059ms total)
T1FF4 18955:192 JLINK_SetWarnOutHandler(...) (0005ms, 0064ms total)
T1FF4 18955:197 JLINK_OpenEx(...)
Firmware: J-Link V9 compiled May 17 2019 09:50:41
Hardware: V9.60
S/N: 69618892
Feature(s): RDI, GDB, FlashDL, FlashBP, JFlash
TELNET listener socket opened on port 19021WEBSRV 
Starting webserver (0071ms, 0135ms total)
T1FF4 18955:197 WEBSRV Webserver running on local port 19080 (0071ms, 0135ms total)
T1FF4 18955:197   returns O.K. (0071ms, 0135ms total)
T1FF4 18955:268 JLINK_GetEmuCaps()  returns 0xB9FF7BBF (0000ms, 0135ms total)
T1FF4 18955:270 JLINK_TIF_GetAvailable(...) (0001ms, 0136ms total)
T1FF4 18955:271 JLINK_SetErrorOutHandler(...) (0000ms, 0136ms total)
T1FF4 18955:271 JLINK_ExecCommand("ProjectFile = "G:\FV-5000(232modbusV1.0.0)\motor control4_1(f103)(DMA)(FV-5000)\USER\JLinkSettings.ini"", ...). Device "CORTEX-M3" selected.  returns 0x00 (0141ms, 0277ms total)
T1FF4 18955:419 JLINK_ExecCommand("Device = STM32F103RB", ...). Device "STM32F103RB" selected.  returns 0x00 (0012ms, 0289ms total)
T1FF4 18955:431 JLINK_ExecCommand("DisableConnectionTimeout", ...).   returns 0x01 (0000ms, 0289ms total)
T1FF4 18955:431 JLINK_GetHardwareVersion()  returns 0x17700 (0000ms, 0289ms total)
T1FF4 18955:431 JLINK_GetDLLVersion()  returns 63004 (0000ms, 0289ms total)
T1FF4 18955:431 JLINK_GetFirmwareString(...) (0000ms, 0289ms total)
T1FF4 18955:459 JLINK_GetDLLVersion()  returns 63004 (0000ms, 0289ms total)
T1FF4 18955:459 JLINK_GetCompileDateTime() (0000ms, 0289ms total)
T1FF4 18955:466 JLINK_GetFirmwareString(...) (0000ms, 0289ms total)
T1FF4 18955:474 JLINK_GetHardwareVersion()  returns 0x17700 (0000ms, 0289ms total)
T1FF4 18955:507 JLINK_TIF_Select(JLINKARM_TIF_SWD)  returns 0x00 (0004ms, 0293ms total)
T1FF4 18955:511 JLINK_SetSpeed(2000) (0001ms, 0294ms total)
T1FF4 18955:512 JLINK_GetId() >0x10B TIF>Found SW-DP with ID 0x1BA01477 >0x0D TIF> >0x28 TIF> >0x0D TIF> >0x28 TIF> >0x0D TIF> >0x28 TIF> >0x0D TIF> >0x28 TIF> >0x0D TIF> >0x21 TIF> >0x0D TIF> >0x28 TIF> >0x0D TIF> >0x28 TIF> >0x0D TIF> >0x28 TIF> >0x0D TIF> >0x21 TIF> >0x0D TIF> >0x21 TIF> >0x0D TIF> >0x28 TIF> >0x0D TIF> >0x21 TIF> >0x0D TIF> >0x21 TIF> >0x0D TIF> >0x28 TIF> >0x0D TIF> >0x21 TIF> >0x0D TIF> >0x21 TIF> >0x0D TIF> >0x28 TIF> >0x0D TIF> >0x21 TIF> >0x0D TIF> >0x21 TIF> >0x0D TIF>
 >0x28 TIF> >0x0D TIF> >0x21 TIF> >0x0D TIF> >0x21 TIF> >0x0D TIF> >0x28 TIF> >0x0D TIF> >0x21 TIF> >0x0D TIF> >0x21 TIF> >0x0D TIF> >0x28 TIF> >0x0D TIF> >0x21 TIF> >0x0D TIF> >0x21 TIF> >0x10B TIF>Found SW-DP with ID 0x1BA01477 >0x0D TIF> >0x28 TIF> >0x0D TIF> >0x28 TIF> >0x0D TIF> >0x28 TIF> >0x0D TIF> >0x28 TIF> >0x0D TIF> >0x21 TIF> >0x0D TIF> >0x28 TIF>Scanning AP map to find all available APs >0x0D TIF> >0x28 TIF> >0x0D TIF> >0x21 TIF> >0x0D TIF> >0x21 TIF> >0x0D TIF> >0x28 TIF> >0x0D TIF>
 >0x21 TIF> >0x0D TIF> >0x21 TIF>AP[1]: Stopped AP scan as end of AP map has been reachedAP[0]: AHB-AP (IDR: 0x14770011)Iterating through AP map to find AHB-AP to use >0x42 TIF> >0x28 TIF> >0x0D TIF> >0x28 TIF> >0x0D TIF> >0x21 TIF> >0x0D TIF> >0x21 TIF> >0x42 TIF> >0x28 TIF> >0x0D TIF> >0x28 TIF> >0x0D TIF> >0x28 TIF> >0x0D TIF> >0x21 TIF> >0x0D TIF> >0x21 TIF>AP[0]: Core foundAP[0]: AHB-AP ROM base: 0xE00FF000 >0x0D TIF> >0x28 TIF> >0x0D TIF> >0x28 TIF> >0x0D TIF> >0x28 TIF> >0x0D TIF> >0x21 TIF>
 >0x0D TIF> >0x21 TIF>CPUID register: 0x411FC231. Implementer code: 0x41 (ARM)Found Cortex-M3 r1p1, Little endian. -- CPU_ReadMem(4 bytes @ 0xE000EDF0) -- CPU_WriteMem(4 bytes @ 0xE000EDF0) -- CPU_ReadMem(4 bytes @ 0xE0002000)FPUnit: 6 code (BP) slots and 2 literal slots -- CPU_ReadMem(4 bytes @ 0xE000EDFC) -- CPU_WriteMem(4 bytes @ 0xE000EDFC) -- CPU_ReadMem(4 bytes @ 0xE0001000) -- CPU_WriteMem(4 bytes @ 0xE0001000) -- CPU_ReadMem(4 bytes @ 0xE000ED88) -- CPU_WriteMem(4 bytes @ 0xE000ED88)
 -- CPU_ReadMem(4 bytes @ 0xE000ED88) -- CPU_WriteMem(4 bytes @ 0xE000ED88)CoreSight components:ROMTbl[0] @ E00FF000 -- CPU_ReadMem(16 bytes @ 0xE00FF000) -- CPU_ReadMem(16 bytes @ 0xE000EFF0) -- CPU_ReadMem(16 bytes @ 0xE000EFE0)ROMTbl[0][0]: E000E000, CID: B105E00D, PID: 001BB000 SCS -- CPU_ReadMem(16 bytes @ 0xE0001FF0) -- CPU_ReadMem(16 bytes @ 0xE0001FE0)ROMTbl[0][1]: E0001000, CID: B105E00D, PID: 001BB002 DWT -- CPU_ReadMem(16 bytes @ 0xE0002FF0) -- CPU_ReadMem(16 bytes @ 0xE0002FE0)
ROMTbl[0][2]: E0002000, CID: B105E00D, PID: 000BB003 FPB -- CPU_ReadMem(16 bytes @ 0xE0000FF0) -- CPU_ReadMem(16 bytes @ 0xE0000FE0)ROMTbl[0][3]: E0000000, CID: B105E00D, PID: 001BB001 ITM -- CPU_ReadMem(16 bytes @ 0xE00FF010) -- CPU_ReadMem(16 bytes @ 0xE0040FF0) -- CPU_ReadMem(16 bytes @ 0xE0040FE0)ROMTbl[0][4]: E0040000, CID: B105900D, PID: 001BB923 TPIU-Lite >0x0D TIF> >0x21 TIF>  returns 0x1BA01477 (0410ms, 0704ms total)
T1FF4 18955:922 JLINK_GetDLLVersion()  returns 63004 (0000ms, 0704ms total)
T1FF4 18955:922 JLINK_CORE_GetFound()  returns 0x30000FF (0000ms, 0704ms total)
T1FF4 18955:922 JLINK_GetDebugInfo(0x100 = JLINKARM_ROM_TABLE_ADDR_INDEX) -- Value=0xE00FF000  returns 0x00 (0000ms, 0704ms total)
T1FF4 18955:930 JLINK_GetDebugInfo(0x100 = JLINKARM_ROM_TABLE_ADDR_INDEX) -- Value=0xE00FF000  returns 0x00 (0000ms, 0704ms total)
T1FF4 18955:930 JLINK_GetDebugInfo(0x101 = JLINKARM_DEBUG_INFO_ETM_ADDR_INDEX) -- Value=0x00000000  returns 0x00 (0000ms, 0704ms total)
T1FF4 18955:930 JLINK_ReadMemEx(0xE0041FF0, 0x0010 Bytes, ..., Flags = 0x02000004) -- CPU_ReadMem(16 bytes @ 0xE0041FF0) - Data: 00 00 00 00 00 00 00 00 00 00 00 00 00 00 00 00  returns 0x10 (0001ms, 0705ms total)
T1FF4 18955:931 JLINK_GetDebugInfo(0x102 = JLINKARM_DEBUG_INFO_MTB_ADDR_INDEX) -- Value=0x00000000  returns 0x00 (0000ms, 0705ms total)
T1FF4 18955:931 JLINK_GetDebugInfo(0x103 = JLINKARM_DEBUG_INFO_TPIU_ADDR_INDEX) -- Value=0xE0040000  returns 0x00 (0000ms, 0705ms total)
T1FF4 18955:931 JLINK_GetDebugInfo(0x104 = JLINKARM_DEBUG_INFO_ITM_ADDR_INDEX) -- Value=0xE0000000  returns 0x00 (0000ms, 0705ms total)
T1FF4 18955:931 JLINK_GetDebugInfo(0x105 = JLINKARM_DEBUG_INFO_DWT_ADDR_INDEX) -- Value=0xE0001000  returns 0x00 (0000ms, 0705ms total)
T1FF4 18955:931 JLINK_GetDebugInfo(0x106 = JLINKARM_DEBUG_INFO_FPB_ADDR_INDEX) -- Value=0xE0002000  returns 0x00 (0000ms, 0705ms total)
T1FF4 18955:931 JLINK_GetDebugInfo(0x107 = JLINKARM_DEBUG_INFO_NVIC_ADDR_INDEX) -- Value=0xE000E000  returns 0x00 (0000ms, 0705ms total)
T1FF4 18955:931 JLINK_GetDebugInfo(0x10C = JLINKARM_DEBUG_INFO_DBG_ADDR_INDEX) -- Value=0xE000EDF0  returns 0x00 (0001ms, 0706ms total)
T1FF4 18955:932 JLINK_GetDebugInfo(0x01 = Unknown) -- Value=0x00000000  returns 0x00 (0000ms, 0706ms total)
T1FF4 18955:932 JLINK_ReadMemU32(0xE000ED00, 0x0001 Items, ...) -- CPU_ReadMem(4 bytes @ 0xE000ED00) - Data: 31 C2 1F 41  returns 0x01 (0000ms, 0706ms total)
T1FF4 18955:932 JLINK_GetDebugInfo(0x10F = JLINKARM_DEBUG_INFO_HAS_CORTEX_M_SECURITY_EXT_INDEX) -- Value=0x00000000  returns 0x00 (0000ms, 0706ms total)
T1FF4 18955:932 JLINK_SetResetType(JLINKARM_CM3_RESET_TYPE_NORMAL)  returns JLINKARM_CM3_RESET_TYPE_NORMAL (0000ms, 0706ms total)
T1FF4 18955:932 JLINK_Reset() -- CPU is running -- CPU_WriteMem(4 bytes @ 0xE000EDF0) -- CPU is running -- CPU_WriteMem(4 bytes @ 0xE000EDFC)Reset: Halt core after reset via DEMCR.VC_CORERESET. >0x35 TIF>Reset: Reset device via AIRCR.SYSRESETREQ. -- CPU is running -- CPU_WriteMem(4 bytes @ 0xE000ED0C) >0x0D TIF> >0x28 TIF> -- CPU_ReadMem(4 bytes @ 0xE000EDF0) -- CPU_ReadMem(4 bytes @ 0xE000EDF0) -- CPU is running -- CPU_WriteMem(4 bytes @ 0xE000EDF0) -- CPU is running
 -- CPU_WriteMem(4 bytes @ 0xE000EDFC) -- CPU_ReadMem(4 bytes @ 0xE000EDF0) -- CPU_WriteMem(4 bytes @ 0xE0002000) -- CPU_ReadMem(4 bytes @ 0xE000EDFC) -- CPU_ReadMem(4 bytes @ 0xE0001000) (0090ms, 0796ms total)
T1FF4 18956:022 JLINK_Halt()  returns 0x00 (0000ms, 0796ms total)
T1FF4 18956:022 JLINK_ReadMemU32(0xE000EDF0, 0x0001 Items, ...) -- CPU_ReadMem(4 bytes @ 0xE000EDF0) - Data: 03 00 03 00  returns 0x01 (0001ms, 0797ms total)
T1FF4 18956:023 JLINK_WriteU32(0xE000EDF0, 0xA05F0003) -- CPU_WriteMem(4 bytes @ 0xE000EDF0)  returns 0x00 (0001ms, 0798ms total)
T1FF4 18956:024 JLINK_WriteU32(0xE000EDFC, 0x01000000) -- CPU_WriteMem(4 bytes @ 0xE000EDFC)  returns 0x00 (0001ms, 0799ms total)
T1FF4 18956:072 JLINK_GetHWStatus(...)  returns 0x00 (0001ms, 0800ms total)
T1FF4 18956:097 JLINK_GetNumBPUnits(Type = 0xFFFFFF00)  returns 0x06 (0000ms, 0800ms total)
T1FF4 18956:097 JLINK_GetNumBPUnits(Type = 0xF0)  returns 0x2000 (0000ms, 0800ms total)
T1FF4 18956:097 JLINK_GetNumWPUnits()  returns 0x04 (0000ms, 0800ms total)
T1FF4 18956:118 JLINK_GetSpeed()  returns 0x7D0 (0000ms, 0800ms total)
T1FF4 18956:133 JLINK_ReadMemU32(0xE000E004, 0x0001 Items, ...) -- CPU_ReadMem(4 bytes @ 0xE000E004) - Data: 01 00 00 00  returns 0x01 (0001ms, 0801ms total)
T1FF4 18956:134 JLINK_ReadMemU32(0xE000E004, 0x0001 Items, ...) -- CPU_ReadMem(4 bytes @ 0xE000E004) - Data: 01 00 00 00  returns 0x01 (0001ms, 0802ms total)
T1FF4 18956:135 JLINK_WriteMemEx(0xE0001000, 0x001C Bytes, ..., Flags = 0x02000004) - Data: 01 00 00 00 00 00 00 00 00 00 00 00 00 00 00 00 ... -- CPU_WriteMem(28 bytes @ 0xE0001000)  returns 0x1C (0001ms, 0803ms total)
T1FF4 18956:136 JLINK_Halt()  returns 0x00 (0000ms, 0803ms total)
T1FF4 18956:136 JLINK_IsHalted()  returns TRUE (0000ms, 0803ms total)
T1FF4 18956:166 JLINK_WriteMem(0x20000000, 0x0164 Bytes, ...) - Data: 00 BE 0A E0 0D 78 2D 06 68 40 08 24 40 00 00 D3 ... -- CPU_WriteMem(356 bytes @ 0x20000000)  returns 0x164 (0003ms, 0806ms total)
T1FF4 18956:169 JLINK_WriteReg(R0, 0x08000000)  returns 0x00 (0000ms, 0806ms total)
T1FF4 18956:169 JLINK_WriteReg(R1, 0x00B71B00)  returns 0x00 (0000ms, 0806ms total)
T1FF4 18956:169 JLINK_WriteReg(R2, 0x00000001)  returns 0x00 (0000ms, 0806ms total)
T1FF4 18956:169 JLINK_WriteReg(R3, 0x00000000)  returns 0x00 (0000ms, 0806ms total)
T1FF4 18956:169 JLINK_WriteReg(R4, 0x00000000)  returns 0x00 (0000ms, 0806ms total)
T1FF4 18956:169 JLINK_WriteReg(R5, 0x00000000)  returns 0x00 (0000ms, 0806ms total)
T1FF4 18956:169 JLINK_WriteReg(R6, 0x00000000)  returns 0x00 (0000ms, 0806ms total)
T1FF4 18956:169 JLINK_WriteReg(R7, 0x00000000)  returns 0x00 (0000ms, 0806ms total)
T1FF4 18956:169 JLINK_WriteReg(R8, 0x00000000)  returns 0x00 (0000ms, 0806ms total)
T1FF4 18956:169 JLINK_WriteReg(R9, 0x20000160)  returns 0x00 (0000ms, 0806ms total)
T1FF4 18956:169 JLINK_WriteReg(R10, 0x00000000)  returns 0x00 (0000ms, 0806ms total)
T1FF4 18956:169 JLINK_WriteReg(R11, 0x00000000)  returns 0x00 (0000ms, 0806ms total)
T1FF4 18956:169 JLINK_WriteReg(R12, 0x00000000)  returns 0x00 (0000ms, 0806ms total)
T1FF4 18956:169 JLINK_WriteReg(R13 (SP), 0x20001000)  returns 0x00 (0000ms, 0806ms total)
T1FF4 18956:169 JLINK_WriteReg(R14, 0x20000001)  returns 0x00 (0000ms, 0806ms total)
T1FF4 18956:169 JLINK_WriteReg(R15 (PC), 0x20000038)  returns 0x00 (0000ms, 0806ms total)
T1FF4 18956:169 JLINK_WriteReg(XPSR, 0x01000000)  returns 0x00 (0000ms, 0806ms total)
T1FF4 18956:169 JLINK_WriteReg(MSP, 0x20001000)  returns 0x00 (0000ms, 0806ms total)
T1FF4 18956:169 JLINK_WriteReg(PSP, 0x20001000)  returns 0x00 (0000ms, 0806ms total)
T1FF4 18956:169 JLINK_WriteReg(CFBP, 0x00000000)  returns 0x00 (0000ms, 0806ms total)
T1FF4 18956:169 JLINK_SetBPEx(Addr = 0x20000000, Type = 0xFFFFFFF2) -- CPU_ReadMem(2 bytes @ 0x20000000)  returns 0x00000001 (0001ms, 0807ms total)
T1FF4 18956:170 JLINK_Go() -- CPU_WriteMem(2 bytes @ 0x20000000) -- CPU_ReadMem(4 bytes @ 0xE0001000) -- CPU_WriteMem(4 bytes @ 0xE0002008) -- CPU_WriteMem(4 bytes @ 0xE000200C) -- CPU_WriteMem(4 bytes @ 0xE0002010) -- CPU_WriteMem(4 bytes @ 0xE0002014) -- CPU_WriteMem(4 bytes @ 0xE0002018) -- CPU_WriteMem(4 bytes @ 0xE000201C) -- CPU_WriteMem(4 bytes @ 0xE0001004) (0009ms, 0816ms total)
T1FF4 18956:179 JLINK_IsHalted() -- CPU_ReadMem(2 bytes @ 0x20000000)  returns TRUE (0005ms, 0821ms total)
T1FF4 18956:184 JLINK_ReadReg(R15 (PC))  returns 0x20000000 (0000ms, 0816ms total)
T1FF4 18956:184 JLINK_ClrBPEx(BPHandle = 0x00000001)  returns 0x00 (0000ms, 0816ms total)
T1FF4 18956:184 JLINK_ReadReg(R0)  returns 0x00000000 (0000ms, 0816ms total)
T1FF4 18956:184 JLINK_WriteReg(R0, 0x08000000)  returns 0x00 (0000ms, 0816ms total)
T1FF4 18956:184 JLINK_WriteReg(R1, 0x00B71B00)  returns 0x00 (0000ms, 0816ms total)
T1FF4 18956:184 JLINK_WriteReg(R2, 0x00000001)  returns 0x00 (0000ms, 0816ms total)
T1FF4 18956:184 JLINK_WriteReg(R3, 0x00000000)  returns 0x00 (0000ms, 0816ms total)
T1FF4 18956:184 JLINK_WriteReg(R4, 0x00000000)  returns 0x00 (0000ms, 0816ms total)
T1FF4 18956:184 JLINK_WriteReg(R5, 0x00000000)  returns 0x00 (0000ms, 0816ms total)
T1FF4 18956:184 JLINK_WriteReg(R6, 0x00000000)  returns 0x00 (0000ms, 0816ms total)
T1FF4 18956:184 JLINK_WriteReg(R7, 0x00000000)  returns 0x00 (0000ms, 0816ms total)
T1FF4 18956:184 JLINK_WriteReg(R8, 0x00000000)  returns 0x00 (0000ms, 0816ms total)
T1FF4 18956:184 JLINK_WriteReg(R9, 0x20000160)  returns 0x00 (0000ms, 0816ms total)
T1FF4 18956:184 JLINK_WriteReg(R10, 0x00000000)  returns 0x00 (0000ms, 0816ms total)
T1FF4 18956:184 JLINK_WriteReg(R11, 0x00000000)  returns 0x00 (0000ms, 0816ms total)
T1FF4 18956:184 JLINK_WriteReg(R12, 0x00000000)  returns 0x00 (0000ms, 0816ms total)
T1FF4 18956:184 JLINK_WriteReg(R13 (SP), 0x20001000)  returns 0x00 (0000ms, 0816ms total)
T1FF4 18956:184 JLINK_WriteReg(R14, 0x20000001)  returns 0x00 (0000ms, 0816ms total)
T1FF4 18956:184 JLINK_WriteReg(R15 (PC), 0x2000007C)  returns 0x00 (0000ms, 0816ms total)
T1FF4 18956:184 JLINK_WriteReg(XPSR, 0x01000000)  returns 0x00 (0000ms, 0816ms total)
T1FF4 18956:184 JLINK_WriteReg(MSP, 0x20001000)  returns 0x00 (0000ms, 0816ms total)
T1FF4 18956:184 JLINK_WriteReg(PSP, 0x20001000)  returns 0x00 (0000ms, 0816ms total)
T1FF4 18956:184 JLINK_WriteReg(CFBP, 0x00000000)  returns 0x00 (0000ms, 0816ms total)
T1FF4 18956:184 JLINK_SetBPEx(Addr = 0x20000000, Type = 0xFFFFFFF2)  returns 0x00000002 (0000ms, 0816ms total)
T1FF4 18956:184 JLINK_Go() -- CPU_ReadMem(4 bytes @ 0xE0001000) (0003ms, 0819ms total)
T1FF4 18956:187 JLINK_IsHalted()  returns FALSE (0001ms, 0820ms total)
T1FF4 18956:235 JLINK_IsHalted() -- CPU_ReadMem(2 bytes @ 0x20000000)  returns TRUE (0005ms, 0824ms total)
T1FF4 18956:240 JLINK_ReadReg(R15 (PC))  returns 0x20000000 (0000ms, 0819ms total)
T1FF4 18956:240 JLINK_ClrBPEx(BPHandle = 0x00000002)  returns 0x00 (0000ms, 0819ms total)
T1FF4 18956:240 JLINK_ReadReg(R0)  returns 0x00000000 (0000ms, 0819ms total)
T1FF4 18956:291 JLINK_WriteReg(R0, 0x00000001)  returns 0x00 (0000ms, 0819ms total)
T1FF4 18956:291 JLINK_WriteReg(R1, 0x00B71B00)  returns 0x00 (0000ms, 0819ms total)
T1FF4 18956:291 JLINK_WriteReg(R2, 0x00000001)  returns 0x00 (0000ms, 0819ms total)
T1FF4 18956:291 JLINK_WriteReg(R3, 0x00000000)  returns 0x00 (0000ms, 0819ms total)
T1FF4 18956:291 JLINK_WriteReg(R4, 0x00000000)  returns 0x00 (0000ms, 0819ms total)
T1FF4 18956:291 JLINK_WriteReg(R5, 0x00000000)  returns 0x00 (0000ms, 0819ms total)
T1FF4 18956:291 JLINK_WriteReg(R6, 0x00000000)  returns 0x00 (0000ms, 0819ms total)
T1FF4 18956:291 JLINK_WriteReg(R7, 0x00000000)  returns 0x00 (0000ms, 0819ms total)
T1FF4 18956:291 JLINK_WriteReg(R8, 0x00000000)  returns 0x00 (0000ms, 0819ms total)
T1FF4 18956:291 JLINK_WriteReg(R9, 0x20000160)  returns 0x00 (0000ms, 0819ms total)
T1FF4 18956:291 JLINK_WriteReg(R10, 0x00000000)  returns 0x00 (0000ms, 0819ms total)
T1FF4 18956:291 JLINK_WriteReg(R11, 0x00000000)  returns 0x00 (0000ms, 0819ms total)
T1FF4 18956:291 JLINK_WriteReg(R12, 0x00000000)  returns 0x00 (0000ms, 0819ms total)
T1FF4 18956:291 JLINK_WriteReg(R13 (SP), 0x20001000)  returns 0x00 (0000ms, 0819ms total)
T1FF4 18956:291 JLINK_WriteReg(R14, 0x20000001)  returns 0x00 (0000ms, 0819ms total)
T1FF4 18956:291 JLINK_WriteReg(R15 (PC), 0x2000006A)  returns 0x00 (0000ms, 0819ms total)
T1FF4 18956:291 JLINK_WriteReg(XPSR, 0x01000000)  returns 0x00 (0000ms, 0819ms total)
T1FF4 18956:291 JLINK_WriteReg(MSP, 0x20001000)  returns 0x00 (0000ms, 0819ms total)
T1FF4 18956:291 JLINK_WriteReg(PSP, 0x20001000)  returns 0x00 (0000ms, 0819ms total)
T1FF4 18956:291 JLINK_WriteReg(CFBP, 0x00000000)  returns 0x00 (0000ms, 0819ms total)
T1FF4 18956:291 JLINK_SetBPEx(Addr = 0x20000000, Type = 0xFFFFFFF2)  returns 0x00000003 (0000ms, 0819ms total)
T1FF4 18956:291 JLINK_Go() -- CPU_ReadMem(4 bytes @ 0xE0001000) (0003ms, 0822ms total)
T1FF4 18956:294 JLINK_IsHalted() -- CPU_ReadMem(2 bytes @ 0x20000000)  returns TRUE (0005ms, 0827ms total)
T1FF4 18956:299 JLINK_ReadReg(R15 (PC))  returns 0x20000000 (0000ms, 0822ms total)
T1FF4 18956:299 JLINK_ClrBPEx(BPHandle = 0x00000003)  returns 0x00 (0000ms, 0822ms total)
T1FF4 18956:299 JLINK_ReadReg(R0)  returns 0x00000000 (0001ms, 0823ms total)
T1FF4 18956:310 JLINK_WriteMem(0x20000000, 0x0164 Bytes, ...) - Data: 00 BE 0A E0 0D 78 2D 06 68 40 08 24 40 00 00 D3 ... -- CPU_WriteMem(356 bytes @ 0x20000000)  returns 0x164 (0003ms, 0826ms total)
T1FF4 18956:313 JLINK_WriteReg(R0, 0x08000000)  returns 0x00 (0000ms, 0826ms total)
T1FF4 18956:313 JLINK_WriteReg(R1, 0x00B71B00)  returns 0x00 (0000ms, 0826ms total)
T1FF4 18956:313 JLINK_WriteReg(R2, 0x00000002)  returns 0x00 (0000ms, 0826ms total)
T1FF4 18956:313 JLINK_WriteReg(R3, 0x00000000)  returns 0x00 (0000ms, 0826ms total)
T1FF4 18956:313 JLINK_WriteReg(R4, 0x00000000)  returns 0x00 (0000ms, 0826ms total)
T1FF4 18956:313 JLINK_WriteReg(R5, 0x00000000)  returns 0x00 (0000ms, 0826ms total)
T1FF4 18956:313 JLINK_WriteReg(R6, 0x00000000)  returns 0x00 (0000ms, 0826ms total)
T1FF4 18956:313 JLINK_WriteReg(R7, 0x00000000)  returns 0x00 (0000ms, 0826ms total)
T1FF4 18956:313 JLINK_WriteReg(R8, 0x00000000)  returns 0x00 (0000ms, 0826ms total)
T1FF4 18956:313 JLINK_WriteReg(R9, 0x20000160)  returns 0x00 (0000ms, 0826ms total)
T1FF4 18956:313 JLINK_WriteReg(R10, 0x00000000)  returns 0x00 (0000ms, 0826ms total)
T1FF4 18956:313 JLINK_WriteReg(R11, 0x00000000)  returns 0x00 (0000ms, 0826ms total)
T1FF4 18956:313 JLINK_WriteReg(R12, 0x00000000)  returns 0x00 (0000ms, 0826ms total)
T1FF4 18956:313 JLINK_WriteReg(R13 (SP), 0x20001000)  returns 0x00 (0000ms, 0826ms total)
T1FF4 18956:313 JLINK_WriteReg(R14, 0x20000001)  returns 0x00 (0000ms, 0826ms total)
T1FF4 18956:313 JLINK_WriteReg(R15 (PC), 0x20000038)  returns 0x00 (0000ms, 0826ms total)
T1FF4 18956:313 JLINK_WriteReg(XPSR, 0x01000000)  returns 0x00 (0000ms, 0826ms total)
T1FF4 18956:313 JLINK_WriteReg(MSP, 0x20001000)  returns 0x00 (0000ms, 0826ms total)
T1FF4 18956:313 JLINK_WriteReg(PSP, 0x20001000)  returns 0x00 (0000ms, 0826ms total)
T1FF4 18956:313 JLINK_WriteReg(CFBP, 0x00000000)  returns 0x00 (0000ms, 0826ms total)
T1FF4 18956:313 JLINK_SetBPEx(Addr = 0x20000000, Type = 0xFFFFFFF2) -- CPU_ReadMem(2 bytes @ 0x20000000)  returns 0x00000004 (0001ms, 0827ms total)
T1FF4 18956:314 JLINK_Go() -- CPU_WriteMem(2 bytes @ 0x20000000) -- CPU_ReadMem(4 bytes @ 0xE0001000) (0004ms, 0831ms total)
T1FF4 18956:318 JLINK_IsHalted() -- CPU_ReadMem(2 bytes @ 0x20000000)  returns TRUE (0005ms, 0836ms total)
T1FF4 18956:323 JLINK_ReadReg(R15 (PC))  returns 0x20000000 (0000ms, 0831ms total)
T1FF4 18956:323 JLINK_ClrBPEx(BPHandle = 0x00000004)  returns 0x00 (0000ms, 0831ms total)
T1FF4 18956:323 JLINK_ReadReg(R0)  returns 0x00000000 (0000ms, 0831ms total)
T1FF4 18956:323 JLINK_WriteMem(0x20000164, 0x029C Bytes, ...) - Data: 50 23 00 20 A9 01 00 08 15 29 00 08 A1 1D 00 08 ... -- CPU_WriteMem(668 bytes @ 0x20000164)  returns 0x29C (0005ms, 0836ms total)
T1FF4 18956:328 JLINK_WriteMem(0x20000400, 0x0164 Bytes, ...) - Data: 03 2A 40 F2 30 80 10 F0 03 0C 00 F0 15 80 11 F8 ... -- CPU_WriteMem(356 bytes @ 0x20000400)  returns 0x164 (0003ms, 0839ms total)
T1FF4 18956:331 JLINK_WriteReg(R0, 0x08000000)  returns 0x00 (0001ms, 0840ms total)
T1FF4 18956:332 JLINK_WriteReg(R1, 0x00000400)  returns 0x00 (0000ms, 0840ms total)
T1FF4 18956:332 JLINK_WriteReg(R2, 0x20000164)  returns 0x00 (0000ms, 0840ms total)
T1FF4 18956:332 JLINK_WriteReg(R3, 0x00000000)  returns 0x00 (0000ms, 0840ms total)
T1FF4 18956:332 JLINK_WriteReg(R4, 0x00000000)  returns 0x00 (0000ms, 0840ms total)
T1FF4 18956:332 JLINK_WriteReg(R5, 0x00000000)  returns 0x00 (0000ms, 0840ms total)
T1FF4 18956:332 JLINK_WriteReg(R6, 0x00000000)  returns 0x00 (0000ms, 0840ms total)
T1FF4 18956:332 JLINK_WriteReg(R7, 0x00000000)  returns 0x00 (0000ms, 0840ms total)
T1FF4 18956:332 JLINK_WriteReg(R8, 0x00000000)  returns 0x00 (0000ms, 0840ms total)
T1FF4 18956:332 JLINK_WriteReg(R9, 0x20000160)  returns 0x00 (0000ms, 0840ms total)
T1FF4 18956:332 JLINK_WriteReg(R10, 0x00000000)  returns 0x00 (0000ms, 0840ms total)
T1FF4 18956:332 JLINK_WriteReg(R11, 0x00000000)  returns 0x00 (0000ms, 0840ms total)
T1FF4 18956:332 JLINK_WriteReg(R12, 0x00000000)  returns 0x00 (0000ms, 0840ms total)
T1FF4 18956:332 JLINK_WriteReg(R13 (SP), 0x20001000)  returns 0x00 (0000ms, 0840ms total)
T1FF4 18956:332 JLINK_WriteReg(R14, 0x20000001)  returns 0x00 (0000ms, 0840ms total)
T1FF4 18956:332 JLINK_WriteReg(R15 (PC), 0x200000F4)  returns 0x00 (0000ms, 0840ms total)
T1FF4 18956:332 JLINK_WriteReg(XPSR, 0x01000000)  returns 0x00 (0000ms, 0840ms total)
T1FF4 18956:332 JLINK_WriteReg(MSP, 0x20001000)  returns 0x00 (0000ms, 0840ms total)
T1FF4 18956:332 JLINK_WriteReg(PSP, 0x20001000)  returns 0x00 (0000ms, 0840ms total)
T1FF4 18956:332 JLINK_WriteReg(CFBP, 0x00000000)  returns 0x00 (0000ms, 0840ms total)
T1FF4 18956:332 JLINK_SetBPEx(Addr = 0x20000000, Type = 0xFFFFFFF2)  returns 0x00000005 (0000ms, 0840ms total)
T1FF4 18956:332 JLINK_Go() -- CPU_ReadMem(4 bytes @ 0xE0001000) (0003ms, 0843ms total)
T1FF4 18956:335 JLINK_IsHalted()  returns FALSE (0001ms, 0844ms total)
T1FF4 18956:342 JLINK_IsHalted()  returns FALSE (0001ms, 0844ms total)
T1FF4 18956:346 JLINK_IsHalted()  returns FALSE (0001ms, 0844ms total)
T1FF4 18956:348 JLINK_IsHalted()  returns FALSE (0001ms, 0844ms total)
T1FF4 18956:350 JLINK_IsHalted()  returns FALSE (0001ms, 0844ms total)
T1FF4 18956:352 JLINK_IsHalted()  returns FALSE (0001ms, 0844ms total)
T1FF4 18956:354 JLINK_IsHalted()  returns FALSE (0001ms, 0844ms total)
T1FF4 18956:356 JLINK_IsHalted()  returns FALSE (0001ms, 0844ms total)
T1FF4 18956:358 JLINK_IsHalted()  returns FALSE (0001ms, 0844ms total)
T1FF4 18956:360 JLINK_IsHalted()  returns FALSE (0001ms, 0844ms total)
T1FF4 18956:363 JLINK_IsHalted()  returns FALSE (0001ms, 0844ms total)
T1FF4 18956:365 JLINK_IsHalted()  returns FALSE (0001ms, 0844ms total)
T1FF4 18956:367 JLINK_IsHalted() -- CPU_ReadMem(2 bytes @ 0x20000000)  returns TRUE (0005ms, 0848ms total)
T1FF4 18956:372 JLINK_ReadReg(R15 (PC))  returns 0x20000000 (0000ms, 0843ms total)
T1FF4 18956:372 JLINK_ClrBPEx(BPHandle = 0x00000005)  returns 0x00 (0000ms, 0843ms total)
T1FF4 18956:372 JLINK_ReadReg(R0)  returns 0x00000000 (0000ms, 0843ms total)
T1FF4 18956:373 JLINK_WriteMem(0x20000164, 0x029C Bytes, ...) - Data: 26 00 02 00 21 B1 82 68 42 F0 01 02 82 60 03 E0 ... -- CPU_WriteMem(668 bytes @ 0x20000164)  returns 0x29C (0005ms, 0848ms total)
T1FF4 18956:378 JLINK_WriteMem(0x20000400, 0x0164 Bytes, ...) - Data: FF F7 C8 FE 00 28 F9 D1 11 B0 00 BD 00 10 01 40 ... -- CPU_WriteMem(356 bytes @ 0x20000400)  returns 0x164 (0002ms, 0850ms total)
T1FF4 18956:380 JLINK_WriteReg(R0, 0x08000400)  returns 0x00 (0000ms, 0850ms total)
T1FF4 18956:381 JLINK_WriteReg(R1, 0x00000400)  returns 0x00 (0000ms, 0850ms total)
T1FF4 18956:381 JLINK_WriteReg(R2, 0x20000164)  returns 0x00 (0000ms, 0850ms total)
T1FF4 18956:381 JLINK_WriteReg(R3, 0x00000000)  returns 0x00 (0000ms, 0850ms total)
T1FF4 18956:381 JLINK_WriteReg(R4, 0x00000000)  returns 0x00 (0000ms, 0850ms total)
T1FF4 18956:381 JLINK_WriteReg(R5, 0x00000000)  returns 0x00 (0000ms, 0850ms total)
T1FF4 18956:381 JLINK_WriteReg(R6, 0x00000000)  returns 0x00 (0000ms, 0850ms total)
T1FF4 18956:381 JLINK_WriteReg(R7, 0x00000000)  returns 0x00 (0000ms, 0850ms total)
T1FF4 18956:381 JLINK_WriteReg(R8, 0x00000000)  returns 0x00 (0000ms, 0850ms total)
T1FF4 18956:381 JLINK_WriteReg(R9, 0x20000160)  returns 0x00 (0000ms, 0850ms total)
T1FF4 18956:381 JLINK_WriteReg(R10, 0x00000000)  returns 0x00 (0000ms, 0850ms total)
T1FF4 18956:381 JLINK_WriteReg(R11, 0x00000000)  returns 0x00 (0000ms, 0850ms total)
T1FF4 18956:381 JLINK_WriteReg(R12, 0x00000000)  returns 0x00 (0000ms, 0850ms total)
T1FF4 18956:381 JLINK_WriteReg(R13 (SP), 0x20001000)  returns 0x00 (0000ms, 0850ms total)
T1FF4 18956:381 JLINK_WriteReg(R14, 0x20000001)  returns 0x00 (0000ms, 0850ms total)
T1FF4 18956:381 JLINK_WriteReg(R15 (PC), 0x200000F4)  returns 0x00 (0000ms, 0850ms total)
T1FF4 18956:381 JLINK_WriteReg(XPSR, 0x01000000)  returns 0x00 (0000ms, 0850ms total)
T1FF4 18956:381 JLINK_WriteReg(MSP, 0x20001000)  returns 0x00 (0000ms, 0850ms total)
T1FF4 18956:381 JLINK_WriteReg(PSP, 0x20001000)  returns 0x00 (0000ms, 0850ms total)
T1FF4 18956:381 JLINK_WriteReg(CFBP, 0x00000000)  returns 0x00 (0000ms, 0850ms total)
T1FF4 18956:381 JLINK_SetBPEx(Addr = 0x20000000, Type = 0xFFFFFFF2)  returns 0x00000006 (0000ms, 0850ms total)
T1FF4 18956:381 JLINK_Go() -- CPU_ReadMem(4 bytes @ 0xE0001000) (0003ms, 0853ms total)
T1FF4 18956:385 JLINK_IsHalted()  returns FALSE (0000ms, 0853ms total)
T1FF4 18956:388 JLINK_IsHalted()  returns FALSE (0001ms, 0854ms total)
T1FF4 18956:392 JLINK_IsHalted()  returns FALSE (0001ms, 0854ms total)
T1FF4 18956:394 JLINK_IsHalted()  returns FALSE (0001ms, 0854ms total)
T1FF4 18956:396 JLINK_IsHalted()  returns FALSE (0001ms, 0854ms total)
T1FF4 18956:398 JLINK_IsHalted()  returns FALSE (0001ms, 0854ms total)
T1FF4 18956:400 JLINK_IsHalted()  returns FALSE (0001ms, 0854ms total)
T1FF4 18956:402 JLINK_IsHalted()  returns FALSE (0001ms, 0854ms total)
T1FF4 18956:405 JLINK_IsHalted()  returns FALSE (0001ms, 0854ms total)
T1FF4 18956:407 JLINK_IsHalted()  returns FALSE (0001ms, 0854ms total)
T1FF4 18956:409 JLINK_IsHalted()  returns FALSE (0001ms, 0854ms total)
T1FF4 18956:411 JLINK_IsHalted()  returns FALSE (0001ms, 0854ms total)
T1FF4 18956:413 JLINK_IsHalted()  returns FALSE (0001ms, 0854ms total)
T1FF4 18956:415 JLINK_IsHalted() -- CPU_ReadMem(2 bytes @ 0x20000000)  returns TRUE (0005ms, 0858ms total)
T1FF4 18956:420 JLINK_ReadReg(R15 (PC))  returns 0x20000000 (0000ms, 0853ms total)
T1FF4 18956:420 JLINK_ClrBPEx(BPHandle = 0x00000006)  returns 0x00 (0000ms, 0853ms total)
T1FF4 18956:420 JLINK_ReadReg(R0)  returns 0x00000000 (0000ms, 0853ms total)
T1FF4 18956:420 JLINK_WriteMem(0x20000164, 0x029C Bytes, ...) - Data: 3A 48 00 68 00 88 00 EB 40 01 20 1D 00 EB 81 00 ... -- CPU_WriteMem(668 bytes @ 0x20000164)  returns 0x29C (0005ms, 0858ms total)
T1FF4 18956:426 JLINK_WriteMem(0x20000400, 0x0164 Bytes, ...) - Data: 00 21 31 4A 12 1F 11 60 5B E0 01 21 2E 4A 12 1F ... -- CPU_WriteMem(356 bytes @ 0x20000400)  returns 0x164 (0002ms, 0860ms total)
T1FF4 18956:428 JLINK_WriteReg(R0, 0x08000800)  returns 0x00 (0000ms, 0860ms total)
T1FF4 18956:428 JLINK_WriteReg(R1, 0x00000400)  returns 0x00 (0000ms, 0860ms total)
T1FF4 18956:428 JLINK_WriteReg(R2, 0x20000164)  returns 0x00 (0000ms, 0860ms total)
T1FF4 18956:428 JLINK_WriteReg(R3, 0x00000000)  returns 0x00 (0000ms, 0860ms total)
T1FF4 18956:428 JLINK_WriteReg(R4, 0x00000000)  returns 0x00 (0001ms, 0861ms total)
T1FF4 18956:429 JLINK_WriteReg(R5, 0x00000000)  returns 0x00 (0000ms, 0861ms total)
T1FF4 18956:429 JLINK_WriteReg(R6, 0x00000000)  returns 0x00 (0000ms, 0861ms total)
T1FF4 18956:429 JLINK_WriteReg(R7, 0x00000000)  returns 0x00 (0000ms, 0861ms total)
T1FF4 18956:429 JLINK_WriteReg(R8, 0x00000000)  returns 0x00 (0000ms, 0861ms total)
T1FF4 18956:429 JLINK_WriteReg(R9, 0x20000160)  returns 0x00 (0000ms, 0861ms total)
T1FF4 18956:429 JLINK_WriteReg(R10, 0x00000000)  returns 0x00 (0000ms, 0861ms total)
T1FF4 18956:429 JLINK_WriteReg(R11, 0x00000000)  returns 0x00 (0000ms, 0861ms total)
T1FF4 18956:429 JLINK_WriteReg(R12, 0x00000000)  returns 0x00 (0000ms, 0861ms total)
T1FF4 18956:429 JLINK_WriteReg(R13 (SP), 0x20001000)  returns 0x00 (0000ms, 0861ms total)
T1FF4 18956:429 JLINK_WriteReg(R14, 0x20000001)  returns 0x00 (0000ms, 0861ms total)
T1FF4 18956:429 JLINK_WriteReg(R15 (PC), 0x200000F4)  returns 0x00 (0000ms, 0861ms total)
T1FF4 18956:429 JLINK_WriteReg(XPSR, 0x01000000)  returns 0x00 (0000ms, 0861ms total)
T1FF4 18956:429 JLINK_WriteReg(MSP, 0x20001000)  returns 0x00 (0000ms, 0861ms total)
T1FF4 18956:429 JLINK_WriteReg(PSP, 0x20001000)  returns 0x00 (0000ms, 0861ms total)
T1FF4 18956:429 JLINK_WriteReg(CFBP, 0x00000000)  returns 0x00 (0000ms, 0861ms total)
T1FF4 18956:429 JLINK_SetBPEx(Addr = 0x20000000, Type = 0xFFFFFFF2)  returns 0x00000007 (0000ms, 0861ms total)
T1FF4 18956:429 JLINK_Go() -- CPU_ReadMem(4 bytes @ 0xE0001000) (0003ms, 0864ms total)
T1FF4 18956:432 JLINK_IsHalted()  returns FALSE (0001ms, 0865ms total)
T1FF4 18956:438 JLINK_IsHalted()  returns FALSE (0001ms, 0865ms total)
T1FF4 18956:440 JLINK_IsHalted()  returns FALSE (0001ms, 0865ms total)
T1FF4 18956:442 JLINK_IsHalted()  returns FALSE (0001ms, 0865ms total)
T1FF4 18956:444 JLINK_IsHalted()  returns FALSE (0001ms, 0865ms total)
T1FF4 18956:446 JLINK_IsHalted()  returns FALSE (0001ms, 0865ms total)
T1FF4 18956:448 JLINK_IsHalted()  returns FALSE (0001ms, 0865ms total)
T1FF4 18956:450 JLINK_IsHalted()  returns FALSE (0001ms, 0865ms total)
T1FF4 18956:452 JLINK_IsHalted()  returns FALSE (0001ms, 0865ms total)
T1FF4 18956:454 JLINK_IsHalted()  returns FALSE (0001ms, 0865ms total)
T1FF4 18956:457 JLINK_IsHalted()  returns FALSE (0001ms, 0865ms total)
T1FF4 18956:459 JLINK_IsHalted()  returns FALSE (0001ms, 0865ms total)
T1FF4 18956:461 JLINK_IsHalted()  returns FALSE (0001ms, 0865ms total)
T1FF4 18956:463 JLINK_IsHalted() -- CPU_ReadMem(2 bytes @ 0x20000000)  returns TRUE (0005ms, 0869ms total)
T1FF4 18956:468 JLINK_ReadReg(R15 (PC))  returns 0x20000000 (0000ms, 0864ms total)
T1FF4 18956:468 JLINK_ClrBPEx(BPHandle = 0x00000007)  returns 0x00 (0000ms, 0864ms total)
T1FF4 18956:468 JLINK_ReadReg(R0)  returns 0x00000000 (0000ms, 0864ms total)
T1FF4 18956:468 JLINK_WriteMem(0x20000164, 0x029C Bytes, ...) - Data: 01 28 02 D1 18 46 FF F7 37 FF 00 20 03 49 08 80 ... -- CPU_WriteMem(668 bytes @ 0x20000164)  returns 0x29C (0006ms, 0870ms total)
T1FF4 18956:474 JLINK_WriteMem(0x20000400, 0x0164 Bytes, ...) - Data: 11 46 02 48 05 F0 C6 FB 0E BD 00 00 00 08 00 40 ... -- CPU_WriteMem(356 bytes @ 0x20000400)  returns 0x164 (0002ms, 0872ms total)
T1FF4 18956:476 JLINK_WriteReg(R0, 0x08000C00)  returns 0x00 (0000ms, 0872ms total)
T1FF4 18956:476 JLINK_WriteReg(R1, 0x00000400)  returns 0x00 (0000ms, 0872ms total)
T1FF4 18956:476 JLINK_WriteReg(R2, 0x20000164)  returns 0x00 (0000ms, 0872ms total)
T1FF4 18956:476 JLINK_WriteReg(R3, 0x00000000)  returns 0x00 (0000ms, 0872ms total)
T1FF4 18956:476 JLINK_WriteReg(R4, 0x00000000)  returns 0x00 (0000ms, 0872ms total)
T1FF4 18956:476 JLINK_WriteReg(R5, 0x00000000)  returns 0x00 (0000ms, 0872ms total)
T1FF4 18956:476 JLINK_WriteReg(R6, 0x00000000)  returns 0x00 (0000ms, 0872ms total)
T1FF4 18956:476 JLINK_WriteReg(R7, 0x00000000)  returns 0x00 (0001ms, 0873ms total)
T1FF4 18956:477 JLINK_WriteReg(R8, 0x00000000)  returns 0x00 (0000ms, 0873ms total)
T1FF4 18956:477 JLINK_WriteReg(R9, 0x20000160)  returns 0x00 (0000ms, 0873ms total)
T1FF4 18956:477 JLINK_WriteReg(R10, 0x00000000)  returns 0x00 (0000ms, 0873ms total)
T1FF4 18956:477 JLINK_WriteReg(R11, 0x00000000)  returns 0x00 (0000ms, 0873ms total)
T1FF4 18956:477 JLINK_WriteReg(R12, 0x00000000)  returns 0x00 (0000ms, 0873ms total)
T1FF4 18956:477 JLINK_WriteReg(R13 (SP), 0x20001000)  returns 0x00 (0000ms, 0873ms total)
T1FF4 18956:477 JLINK_WriteReg(R14, 0x20000001)  returns 0x00 (0000ms, 0873ms total)
T1FF4 18956:477 JLINK_WriteReg(R15 (PC), 0x200000F4)  returns 0x00 (0000ms, 0873ms total)
T1FF4 18956:477 JLINK_WriteReg(XPSR, 0x01000000)  returns 0x00 (0000ms, 0873ms total)
T1FF4 18956:477 JLINK_WriteReg(MSP, 0x20001000)  returns 0x00 (0000ms, 0873ms total)
T1FF4 18956:477 JLINK_WriteReg(PSP, 0x20001000)  returns 0x00 (0000ms, 0873ms total)
T1FF4 18956:477 JLINK_WriteReg(CFBP, 0x00000000)  returns 0x00 (0000ms, 0873ms total)
T1FF4 18956:477 JLINK_SetBPEx(Addr = 0x20000000, Type = 0xFFFFFFF2)  returns 0x00000008 (0000ms, 0873ms total)
T1FF4 18956:477 JLINK_Go() -- CPU_ReadMem(4 bytes @ 0xE0001000) (0003ms, 0876ms total)
T1FF4 18956:480 JLINK_IsHalted()  returns FALSE (0001ms, 0877ms total)
T1FF4 18956:484 JLINK_IsHalted()  returns FALSE (0001ms, 0877ms total)
T1FF4 18956:486 JLINK_IsHalted()  returns FALSE (0001ms, 0877ms total)
T1FF4 18956:489 JLINK_IsHalted()  returns FALSE (0001ms, 0877ms total)
T1FF4 18956:491 JLINK_IsHalted()  returns FALSE (0001ms, 0877ms total)
T1FF4 18956:493 JLINK_IsHalted()  returns FALSE (0001ms, 0877ms total)
T1FF4 18956:495 JLINK_IsHalted()  returns FALSE (0001ms, 0877ms total)
T1FF4 18956:497 JLINK_IsHalted()  returns FALSE (0001ms, 0877ms total)
T1FF4 18956:499 JLINK_IsHalted()  returns FALSE (0001ms, 0877ms total)
T1FF4 18956:504 JLINK_IsHalted()  returns FALSE (0001ms, 0877ms total)
T1FF4 18956:506 JLINK_IsHalted()  returns FALSE (0001ms, 0877ms total)
T1FF4 18956:508 JLINK_IsHalted()  returns FALSE (0001ms, 0877ms total)
T1FF4 18956:510 JLINK_IsHalted()  returns FALSE (0001ms, 0877ms total)
T1FF4 18956:512 JLINK_IsHalted() -- CPU_ReadMem(2 bytes @ 0x20000000)  returns TRUE (0005ms, 0881ms total)
T1FF4 18956:517 JLINK_ReadReg(R15 (PC))  returns 0x20000000 (0000ms, 0876ms total)
T1FF4 18956:517 JLINK_ClrBPEx(BPHandle = 0x00000008)  returns 0x00 (0000ms, 0876ms total)
T1FF4 18956:517 JLINK_ReadReg(R0)  returns 0x00000000 (0000ms, 0876ms total)
T1FF4 18956:517 JLINK_WriteMem(0x20000164, 0x029C Bytes, ...) - Data: 7C 0A 00 20 AE 03 00 20 B4 03 00 20 B6 03 00 20 ... -- CPU_WriteMem(668 bytes @ 0x20000164)  returns 0x29C (0005ms, 0881ms total)
T1FF4 18956:522 JLINK_WriteMem(0x20000400, 0x0164 Bytes, ...) - Data: 0C 48 00 68 40 6A 0B 49 09 68 88 62 09 48 00 68 ... -- CPU_WriteMem(356 bytes @ 0x20000400)  returns 0x164 (0003ms, 0884ms total)
T1FF4 18956:525 JLINK_WriteReg(R0, 0x08001000)  returns 0x00 (0000ms, 0884ms total)
T1FF4 18956:525 JLINK_WriteReg(R1, 0x00000400)  returns 0x00 (0000ms, 0884ms total)
T1FF4 18956:525 JLINK_WriteReg(R2, 0x20000164)  returns 0x00 (0000ms, 0884ms total)
T1FF4 18956:525 JLINK_WriteReg(R3, 0x00000000)  returns 0x00 (0000ms, 0884ms total)
T1FF4 18956:525 JLINK_WriteReg(R4, 0x00000000)  returns 0x00 (0000ms, 0884ms total)
T1FF4 18956:525 JLINK_WriteReg(R5, 0x00000000)  returns 0x00 (0000ms, 0884ms total)
T1FF4 18956:525 JLINK_WriteReg(R6, 0x00000000)  returns 0x00 (0000ms, 0884ms total)
T1FF4 18956:525 JLINK_WriteReg(R7, 0x00000000)  returns 0x00 (0000ms, 0884ms total)
T1FF4 18956:525 JLINK_WriteReg(R8, 0x00000000)  returns 0x00 (0000ms, 0884ms total)
T1FF4 18956:525 JLINK_WriteReg(R9, 0x20000160)  returns 0x00 (0000ms, 0884ms total)
T1FF4 18956:525 JLINK_WriteReg(R10, 0x00000000)  returns 0x00 (0000ms, 0884ms total)
T1FF4 18956:525 JLINK_WriteReg(R11, 0x00000000)  returns 0x00 (0000ms, 0884ms total)
T1FF4 18956:525 JLINK_WriteReg(R12, 0x00000000)  returns 0x00 (0000ms, 0884ms total)
T1FF4 18956:525 JLINK_WriteReg(R13 (SP), 0x20001000)  returns 0x00 (0000ms, 0884ms total)
T1FF4 18956:525 JLINK_WriteReg(R14, 0x20000001)  returns 0x00 (0000ms, 0884ms total)
T1FF4 18956:525 JLINK_WriteReg(R15 (PC), 0x200000F4)  returns 0x00 (0000ms, 0884ms total)
T1FF4 18956:525 JLINK_WriteReg(XPSR, 0x01000000)  returns 0x00 (0000ms, 0884ms total)
T1FF4 18956:525 JLINK_WriteReg(MSP, 0x20001000)  returns 0x00 (0000ms, 0884ms total)
T1FF4 18956:525 JLINK_WriteReg(PSP, 0x20001000)  returns 0x00 (0001ms, 0885ms total)
T1FF4 18956:526 JLINK_WriteReg(CFBP, 0x00000000)  returns 0x00 (0000ms, 0885ms total)
T1FF4 18956:526 JLINK_SetBPEx(Addr = 0x20000000, Type = 0xFFFFFFF2)  returns 0x00000009 (0000ms, 0885ms total)
T1FF4 18956:526 JLINK_Go() -- CPU_ReadMem(4 bytes @ 0xE0001000) (0003ms, 0888ms total)
T1FF4 18956:529 JLINK_IsHalted()  returns FALSE (0001ms, 0889ms total)
T1FF4 18956:533 JLINK_IsHalted()  returns FALSE (0001ms, 0889ms total)
T1FF4 18956:535 JLINK_IsHalted()  returns FALSE (0001ms, 0889ms total)
T1FF4 18956:537 JLINK_IsHalted()  returns FALSE (0001ms, 0889ms total)
T1FF4 18956:539 JLINK_IsHalted()  returns FALSE (0001ms, 0889ms total)
T1FF4 18956:541 JLINK_IsHalted()  returns FALSE (0001ms, 0889ms total)
T1FF4 18956:543 JLINK_IsHalted()  returns FALSE (0001ms, 0889ms total)
T1FF4 18956:545 JLINK_IsHalted()  returns FALSE (0001ms, 0889ms total)
T1FF4 18956:553 JLINK_IsHalted()  returns FALSE (0001ms, 0889ms total)
T1FF4 18956:555 JLINK_IsHalted()  returns FALSE (0001ms, 0889ms total)
T1FF4 18956:557 JLINK_IsHalted()  returns FALSE (0001ms, 0889ms total)
T1FF4 18956:559 JLINK_IsHalted()  returns FALSE (0001ms, 0889ms total)
T1FF4 18956:561 JLINK_IsHalted() -- CPU_ReadMem(2 bytes @ 0x20000000)  returns TRUE (0005ms, 0893ms total)
T1FF4 18956:566 JLINK_ReadReg(R15 (PC))  returns 0x20000000 (0000ms, 0888ms total)
T1FF4 18956:566 JLINK_ClrBPEx(BPHandle = 0x00000009)  returns 0x00 (0000ms, 0888ms total)
T1FF4 18956:566 JLINK_ReadReg(R0)  returns 0x00000000 (0000ms, 0888ms total)
T1FF4 18956:567 JLINK_WriteMem(0x20000164, 0x029C Bytes, ...) - Data: 41 68 30 46 07 F0 68 FD 21 D2 60 42 07 F0 38 FC ... -- CPU_WriteMem(668 bytes @ 0x20000164)  returns 0x29C (0005ms, 0893ms total)
T1FF4 18956:572 JLINK_WriteMem(0x20000400, 0x0164 Bytes, ...) - Data: 08 70 20 46 FE F7 A6 FD 20 20 00 F0 7D F9 A8 B1 ... -- CPU_WriteMem(356 bytes @ 0x20000400)  returns 0x164 (0003ms, 0896ms total)
T1FF4 18956:575 JLINK_WriteReg(R0, 0x08001400)  returns 0x00 (0000ms, 0896ms total)
T1FF4 18956:575 JLINK_WriteReg(R1, 0x00000400)  returns 0x00 (0000ms, 0896ms total)
T1FF4 18956:575 JLINK_WriteReg(R2, 0x20000164)  returns 0x00 (0000ms, 0896ms total)
T1FF4 18956:575 JLINK_WriteReg(R3, 0x00000000)  returns 0x00 (0000ms, 0896ms total)
T1FF4 18956:575 JLINK_WriteReg(R4, 0x00000000)  returns 0x00 (0000ms, 0896ms total)
T1FF4 18956:575 JLINK_WriteReg(R5, 0x00000000)  returns 0x00 (0000ms, 0896ms total)
T1FF4 18956:575 JLINK_WriteReg(R6, 0x00000000)  returns 0x00 (0000ms, 0896ms total)
T1FF4 18956:575 JLINK_WriteReg(R7, 0x00000000)  returns 0x00 (0000ms, 0896ms total)
T1FF4 18956:575 JLINK_WriteReg(R8, 0x00000000)  returns 0x00 (0000ms, 0896ms total)
T1FF4 18956:575 JLINK_WriteReg(R9, 0x20000160)  returns 0x00 (0000ms, 0896ms total)
T1FF4 18956:575 JLINK_WriteReg(R10, 0x00000000)  returns 0x00 (0000ms, 0896ms total)
T1FF4 18956:575 JLINK_WriteReg(R11, 0x00000000)  returns 0x00 (0000ms, 0896ms total)
T1FF4 18956:575 JLINK_WriteReg(R12, 0x00000000)  returns 0x00 (0000ms, 0896ms total)
T1FF4 18956:575 JLINK_WriteReg(R13 (SP), 0x20001000)  returns 0x00 (0000ms, 0896ms total)
T1FF4 18956:575 JLINK_WriteReg(R14, 0x20000001)  returns 0x00 (0000ms, 0896ms total)
T1FF4 18956:575 JLINK_WriteReg(R15 (PC), 0x200000F4)  returns 0x00 (0000ms, 0896ms total)
T1FF4 18956:575 JLINK_WriteReg(XPSR, 0x01000000)  returns 0x00 (0000ms, 0896ms total)
T1FF4 18956:575 JLINK_WriteReg(MSP, 0x20001000)  returns 0x00 (0001ms, 0897ms total)
T1FF4 18956:576 JLINK_WriteReg(PSP, 0x20001000)  returns 0x00 (0000ms, 0897ms total)
T1FF4 18956:576 JLINK_WriteReg(CFBP, 0x00000000)  returns 0x00 (0000ms, 0897ms total)
T1FF4 18956:576 JLINK_SetBPEx(Addr = 0x20000000, Type = 0xFFFFFFF2)  returns 0x0000000A (0000ms, 0897ms total)
T1FF4 18956:576 JLINK_Go() -- CPU_ReadMem(4 bytes @ 0xE0001000) (0002ms, 0899ms total)
T1FF4 18956:578 JLINK_IsHalted()  returns FALSE (0001ms, 0900ms total)
T1FF4 18956:586 JLINK_IsHalted()  returns FALSE (0001ms, 0900ms total)
T1FF4 18956:588 JLINK_IsHalted()  returns FALSE (0003ms, 0902ms total)
T1FF4 18956:594 JLINK_IsHalted()  returns FALSE (0001ms, 0900ms total)
T1FF4 18956:596 JLINK_IsHalted()  returns FALSE (0001ms, 0900ms total)
T1FF4 18956:599 JLINK_IsHalted()  returns FALSE (0001ms, 0900ms total)
T1FF4 18956:601 JLINK_IsHalted()  returns FALSE (0000ms, 0899ms total)
T1FF4 18956:602 JLINK_IsHalted()  returns FALSE (0000ms, 0899ms total)
T1FF4 18956:603 JLINK_IsHalted()  returns FALSE (0000ms, 0899ms total)
T1FF4 18956:604 JLINK_IsHalted()  returns FALSE (0000ms, 0899ms total)
T1FF4 18956:605 JLINK_IsHalted()  returns FALSE (0000ms, 0899ms total)
T1FF4 18956:606 JLINK_IsHalted()  returns FALSE (0000ms, 0899ms total)
T1FF4 18956:607 JLINK_IsHalted()  returns FALSE (0000ms, 0899ms total)
T1FF4 18956:608 JLINK_IsHalted()  returns FALSE (0000ms, 0899ms total)
T1FF4 18956:609 JLINK_IsHalted() -- CPU_ReadMem(2 bytes @ 0x20000000)  returns TRUE (0004ms, 0903ms total)
T1FF4 18956:613 JLINK_ReadReg(R15 (PC))  returns 0x20000000 (0000ms, 0899ms total)
T1FF4 18956:613 JLINK_ClrBPEx(BPHandle = 0x0000000A)  returns 0x00 (0000ms, 0899ms total)
T1FF4 18956:613 JLINK_ReadReg(R0)  returns 0x00000000 (0000ms, 0899ms total)
T1FF4 18956:614 JLINK_WriteMem(0x20000164, 0x029C Bytes, ...) - Data: 70 47 00 00 04 04 02 40 00 00 02 40 21 B1 02 68 ... -- CPU_WriteMem(668 bytes @ 0x20000164)  returns 0x29C (0005ms, 0904ms total)
T1FF4 18956:619 JLINK_WriteMem(0x20000400, 0x0164 Bytes, ...) - Data: 00 F0 76 F8 05 46 04 48 00 69 41 F6 FD 71 08 40 ... -- CPU_WriteMem(356 bytes @ 0x20000400)  returns 0x164 (0003ms, 0907ms total)
T1FF4 18956:622 JLINK_WriteReg(R0, 0x08001800)  returns 0x00 (0000ms, 0907ms total)
T1FF4 18956:622 JLINK_WriteReg(R1, 0x00000400)  returns 0x00 (0000ms, 0907ms total)
T1FF4 18956:622 JLINK_WriteReg(R2, 0x20000164)  returns 0x00 (0000ms, 0907ms total)
T1FF4 18956:622 JLINK_WriteReg(R3, 0x00000000)  returns 0x00 (0000ms, 0907ms total)
T1FF4 18956:622 JLINK_WriteReg(R4, 0x00000000)  returns 0x00 (0000ms, 0907ms total)
T1FF4 18956:622 JLINK_WriteReg(R5, 0x00000000)  returns 0x00 (0000ms, 0907ms total)
T1FF4 18956:622 JLINK_WriteReg(R6, 0x00000000)  returns 0x00 (0000ms, 0907ms total)
T1FF4 18956:622 JLINK_WriteReg(R7, 0x00000000)  returns 0x00 (0000ms, 0907ms total)
T1FF4 18956:622 JLINK_WriteReg(R8, 0x00000000)  returns 0x00 (0000ms, 0907ms total)
T1FF4 18956:622 JLINK_WriteReg(R9, 0x20000160)  returns 0x00 (0000ms, 0907ms total)
T1FF4 18956:622 JLINK_WriteReg(R10, 0x00000000)  returns 0x00 (0000ms, 0907ms total)
T1FF4 18956:622 JLINK_WriteReg(R11, 0x00000000)  returns 0x00 (0000ms, 0907ms total)
T1FF4 18956:622 JLINK_WriteReg(R12, 0x00000000)  returns 0x00 (0000ms, 0907ms total)
T1FF4 18956:622 JLINK_WriteReg(R13 (SP), 0x20001000)  returns 0x00 (0000ms, 0907ms total)
T1FF4 18956:622 JLINK_WriteReg(R14, 0x20000001)  returns 0x00 (0000ms, 0907ms total)
T1FF4 18956:622 JLINK_WriteReg(R15 (PC), 0x200000F4)  returns 0x00 (0000ms, 0907ms total)
T1FF4 18956:622 JLINK_WriteReg(XPSR, 0x01000000)  returns 0x00 (0000ms, 0907ms total)
T1FF4 18956:622 JLINK_WriteReg(MSP, 0x20001000)  returns 0x00 (0000ms, 0907ms total)
T1FF4 18956:622 JLINK_WriteReg(PSP, 0x20001000)  returns 0x00 (0000ms, 0907ms total)
T1FF4 18956:622 JLINK_WriteReg(CFBP, 0x00000000)  returns 0x00 (0000ms, 0907ms total)
T1FF4 18956:622 JLINK_SetBPEx(Addr = 0x20000000, Type = 0xFFFFFFF2)  returns 0x0000000B (0000ms, 0907ms total)
T1FF4 18956:622 JLINK_Go() -- CPU_ReadMem(4 bytes @ 0xE0001000) (0004ms, 0911ms total)
T1FF4 18956:626 JLINK_IsHalted()  returns FALSE (0001ms, 0912ms total)
T1FF4 18956:632 JLINK_IsHalted()  returns FALSE (0001ms, 0912ms total)
T1FF4 18956:634 JLINK_IsHalted()  returns FALSE (0001ms, 0912ms total)
T1FF4 18956:636 JLINK_IsHalted()  returns FALSE (0001ms, 0912ms total)
T1FF4 18956:640 JLINK_IsHalted()  returns FALSE (0001ms, 0912ms total)
T1FF4 18956:642 JLINK_IsHalted()  returns FALSE (0001ms, 0912ms total)
T1FF4 18956:644 JLINK_IsHalted()  returns FALSE (0001ms, 0912ms total)
T1FF4 18956:646 JLINK_IsHalted()  returns FALSE (0001ms, 0912ms total)
T1FF4 18956:648 JLINK_IsHalted()  returns FALSE (0001ms, 0912ms total)
T1FF4 18956:650 JLINK_IsHalted()  returns FALSE (0001ms, 0912ms total)
T1FF4 18956:652 JLINK_IsHalted()  returns FALSE (0001ms, 0912ms total)
T1FF4 18956:655 JLINK_IsHalted()  returns FALSE (0001ms, 0912ms total)
T1FF4 18956:657 JLINK_IsHalted() -- CPU_ReadMem(2 bytes @ 0x20000000)  returns TRUE (0005ms, 0916ms total)
T1FF4 18956:662 JLINK_ReadReg(R15 (PC))  returns 0x20000000 (0000ms, 0911ms total)
T1FF4 18956:662 JLINK_ClrBPEx(BPHandle = 0x0000000B)  returns 0x00 (0000ms, 0911ms total)
T1FF4 18956:662 JLINK_ReadReg(R0)  returns 0x00000000 (0000ms, 0911ms total)
T1FF4 18956:662 JLINK_WriteMem(0x20000164, 0x029C Bytes, ...) - Data: 03 06 9E 42 20 D1 83 00 4F F0 0F 0C 0C FA 03 F7 ... -- CPU_WriteMem(668 bytes @ 0x20000164)  returns 0x29C (0005ms, 0916ms total)
T1FF4 18956:667 JLINK_WriteMem(0x20000400, 0x0164 Bytes, ...) - Data: 8A FE 08 BD 00 0C 01 40 00 14 01 40 00 10 01 40 ... -- CPU_WriteMem(356 bytes @ 0x20000400)  returns 0x164 (0003ms, 0919ms total)
T1FF4 18956:670 JLINK_WriteReg(R0, 0x08001C00)  returns 0x00 (0000ms, 0919ms total)
T1FF4 18956:670 JLINK_WriteReg(R1, 0x00000400)  returns 0x00 (0000ms, 0919ms total)
T1FF4 18956:670 JLINK_WriteReg(R2, 0x20000164)  returns 0x00 (0000ms, 0919ms total)
T1FF4 18956:670 JLINK_WriteReg(R3, 0x00000000)  returns 0x00 (0000ms, 0919ms total)
T1FF4 18956:670 JLINK_WriteReg(R4, 0x00000000)  returns 0x00 (0000ms, 0919ms total)
T1FF4 18956:670 JLINK_WriteReg(R5, 0x00000000)  returns 0x00 (0000ms, 0919ms total)
T1FF4 18956:670 JLINK_WriteReg(R6, 0x00000000)  returns 0x00 (0000ms, 0919ms total)
T1FF4 18956:670 JLINK_WriteReg(R7, 0x00000000)  returns 0x00 (0000ms, 0919ms total)
T1FF4 18956:670 JLINK_WriteReg(R8, 0x00000000)  returns 0x00 (0000ms, 0919ms total)
T1FF4 18956:670 JLINK_WriteReg(R9, 0x20000160)  returns 0x00 (0000ms, 0919ms total)
T1FF4 18956:670 JLINK_WriteReg(R10, 0x00000000)  returns 0x00 (0000ms, 0919ms total)
T1FF4 18956:670 JLINK_WriteReg(R11, 0x00000000)  returns 0x00 (0000ms, 0919ms total)
T1FF4 18956:670 JLINK_WriteReg(R12, 0x00000000)  returns 0x00 (0000ms, 0919ms total)
T1FF4 18956:670 JLINK_WriteReg(R13 (SP), 0x20001000)  returns 0x00 (0000ms, 0919ms total)
T1FF4 18956:670 JLINK_WriteReg(R14, 0x20000001)  returns 0x00 (0000ms, 0919ms total)
T1FF4 18956:670 JLINK_WriteReg(R15 (PC), 0x200000F4)  returns 0x00 (0000ms, 0919ms total)
T1FF4 18956:670 JLINK_WriteReg(XPSR, 0x01000000)  returns 0x00 (0000ms, 0919ms total)
T1FF4 18956:670 JLINK_WriteReg(MSP, 0x20001000)  returns 0x00 (0000ms, 0919ms total)
T1FF4 18956:670 JLINK_WriteReg(PSP, 0x20001000)  returns 0x00 (0000ms, 0919ms total)
T1FF4 18956:670 JLINK_WriteReg(CFBP, 0x00000000)  returns 0x00 (0000ms, 0919ms total)
T1FF4 18956:670 JLINK_SetBPEx(Addr = 0x20000000, Type = 0xFFFFFFF2)  returns 0x0000000C (0000ms, 0919ms total)
T1FF4 18956:670 JLINK_Go() -- CPU_ReadMem(4 bytes @ 0xE0001000) (0003ms, 0922ms total)
T1FF4 18956:673 JLINK_IsHalted()  returns FALSE (0001ms, 0923ms total)
T1FF4 18956:678 JLINK_IsHalted()  returns FALSE (0001ms, 0923ms total)
T1FF4 18956:680 JLINK_IsHalted()  returns FALSE (0001ms, 0923ms total)
T1FF4 18956:682 JLINK_IsHalted()  returns FALSE (0001ms, 0923ms total)
T1FF4 18956:684 JLINK_IsHalted()  returns FALSE (0001ms, 0923ms total)
T1FF4 18956:686 JLINK_IsHalted()  returns FALSE (0001ms, 0923ms total)
T1FF4 18956:688 JLINK_IsHalted()  returns FALSE (0001ms, 0923ms total)
T1FF4 18956:690 JLINK_IsHalted()  returns FALSE (0001ms, 0923ms total)
T1FF4 18956:693 JLINK_IsHalted()  returns FALSE (0001ms, 0923ms total)
T1FF4 18956:695 JLINK_IsHalted()  returns FALSE (0001ms, 0923ms total)
T1FF4 18956:697 JLINK_IsHalted()  returns FALSE (0001ms, 0923ms total)
T1FF4 18956:699 JLINK_IsHalted()  returns FALSE (0001ms, 0923ms total)
T1FF4 18956:701 JLINK_IsHalted()  returns FALSE (0001ms, 0923ms total)
T1FF4 18956:705 JLINK_IsHalted() -- CPU_ReadMem(2 bytes @ 0x20000000)  returns TRUE (0005ms, 0927ms total)
T1FF4 18956:710 JLINK_ReadReg(R15 (PC))  returns 0x20000000 (0000ms, 0922ms total)
T1FF4 18956:710 JLINK_ClrBPEx(BPHandle = 0x0000000C)  returns 0x00 (0000ms, 0922ms total)
T1FF4 18956:710 JLINK_ReadReg(R0)  returns 0x00000000 (0000ms, 0922ms total)
T1FF4 18956:710 JLINK_WriteMem(0x20000164, 0x029C Bytes, ...) - Data: 01 2A 01 D1 0A 82 03 E0 C2 7A 0A B9 00 22 0A 82 ... -- CPU_WriteMem(668 bytes @ 0x20000164)  returns 0x29C (0006ms, 0928ms total)
T1FF4 18956:716 JLINK_WriteMem(0x20000400, 0x0164 Bytes, ...) - Data: 08 46 DF F8 78 C1 BC F8 00 C0 94 45 05 DA DF F8 ... -- CPU_WriteMem(356 bytes @ 0x20000400)  returns 0x164 (0003ms, 0931ms total)
T1FF4 18956:719 JLINK_WriteReg(R0, 0x08002000)  returns 0x00 (0000ms, 0931ms total)
T1FF4 18956:719 JLINK_WriteReg(R1, 0x00000400)  returns 0x00 (0000ms, 0931ms total)
T1FF4 18956:719 JLINK_WriteReg(R2, 0x20000164)  returns 0x00 (0000ms, 0931ms total)
T1FF4 18956:719 JLINK_WriteReg(R3, 0x00000000)  returns 0x00 (0000ms, 0931ms total)
T1FF4 18956:719 JLINK_WriteReg(R4, 0x00000000)  returns 0x00 (0000ms, 0931ms total)
T1FF4 18956:719 JLINK_WriteReg(R5, 0x00000000)  returns 0x00 (0000ms, 0931ms total)
T1FF4 18956:719 JLINK_WriteReg(R6, 0x00000000)  returns 0x00 (0000ms, 0931ms total)
T1FF4 18956:719 JLINK_WriteReg(R7, 0x00000000)  returns 0x00 (0000ms, 0931ms total)
T1FF4 18956:719 JLINK_WriteReg(R8, 0x00000000)  returns 0x00 (0000ms, 0931ms total)
T1FF4 18956:719 JLINK_WriteReg(R9, 0x20000160)  returns 0x00 (0000ms, 0931ms total)
T1FF4 18956:719 JLINK_WriteReg(R10, 0x00000000)  returns 0x00 (0000ms, 0931ms total)
T1FF4 18956:719 JLINK_WriteReg(R11, 0x00000000)  returns 0x00 (0000ms, 0931ms total)
T1FF4 18956:719 JLINK_WriteReg(R12, 0x00000000)  returns 0x00 (0000ms, 0931ms total)
T1FF4 18956:719 JLINK_WriteReg(R13 (SP), 0x20001000)  returns 0x00 (0000ms, 0931ms total)
T1FF4 18956:719 JLINK_WriteReg(R14, 0x20000001)  returns 0x00 (0000ms, 0931ms total)
T1FF4 18956:719 JLINK_WriteReg(R15 (PC), 0x200000F4)  returns 0x00 (0000ms, 0931ms total)
T1FF4 18956:719 JLINK_WriteReg(XPSR, 0x01000000)  returns 0x00 (0000ms, 0931ms total)
T1FF4 18956:719 JLINK_WriteReg(MSP, 0x20001000)  returns 0x00 (0000ms, 0931ms total)
T1FF4 18956:719 JLINK_WriteReg(PSP, 0x20001000)  returns 0x00 (0000ms, 0931ms total)
T1FF4 18956:719 JLINK_WriteReg(CFBP, 0x00000000)  returns 0x00 (0000ms, 0931ms total)
